
T3CF8 000:296 SEGGER J-Link V4.98b Log File (0002ms, 0272ms total)
T3CF8 000:296 DLL Compiled: Apr 10 2015 20:15:52 (0002ms, 0272ms total)
T3CF8 000:296 Logging started @ 2017-11-10 16:17 (0002ms, 0272ms total)
T3CF8 000:298 JLINK_SetWarnOutHandler(...) (0000ms, 0272ms total)
T3CF8 000:298 JLINK_OpenEx(...)
Firmware: J-Link ARM-OB STM32 compiled Aug 22 2012 19:52:04
Hardware: V7.00
S/N: 20090928
Feature(s): RDI,FlashDL,FlashBP,JFlash,GDBFull  returns O.K. (0275ms, 0547ms total)
T3CF8 000:573 JLINK_GetEmuCaps()  returns 0x88EA5833 (0000ms, 0547ms total)
T3CF8 000:573 JLINK_TIF_GetAvailable(...) (0000ms, 0547ms total)
T3CF8 000:573 JLINK_SetErrorOutHandler(...) (0000ms, 0547ms total)
T3CF8 000:573 JLINK_ExecCommand("ProjectFile = "C:\Users\momo\Desktop\资料备份\nRF5_SDK_12.3.0_d7731ad\examples\peripheral\blinky_freertos\pca10028\blank\arm5_no_packs\JLinkSettings.ini"", ...)  returns 0x00 (0002ms, 0549ms total)
T3CF8 000:575 JLINK_ExecCommand("Device = nRF51822_xxAA", ...)Device "NRF51822_XXAA" selected.  returns 0x00 (0000ms, 0549ms total)
T3CF8 000:575 JLINK_ExecCommand("DisableConnectionTimeout", ...)  returns 0x01 (0000ms, 0549ms total)
T3CF8 000:575 JLINK_GetHardwareVersion()  returns 0x11170 (0000ms, 0549ms total)
T3CF8 000:576 JLINK_GetDLLVersion()  returns 49802 (0000ms, 0550ms total)
T3CF8 000:576 JLINK_GetFirmwareString(...) (0000ms, 0550ms total)
T3CF8 000:576 JLINK_GetDLLVersion()  returns 49802 (0000ms, 0550ms total)
T3CF8 000:576 JLINK_GetCompileDateTime() (0000ms, 0550ms total)
T3CF8 000:576 JLINK_GetFirmwareString(...) (0000ms, 0550ms total)
T3CF8 000:576 JLINK_GetHardwareVersion()  returns 0x11170 (0000ms, 0550ms total)
T3CF8 000:576 JLINK_TIF_Select(JLINKARM_TIF_SWD)  returns 0x00 (0001ms, 0551ms total)
T3CF8 000:577 JLINK_SetSpeed(5000) (0000ms, 0551ms total)
T3CF8 000:577 JLINK_GetId() >0x108 TIF>Found SWD-DP with ID 0x0BB11477 >0x35 TIF> >0x0D TIF> >0x28 TIF> >0x0D TIF> >0x28 TIF> >0x35 TIF> >0x0D TIF> >0x28 TIF> >0x35 TIF> >0x35 TIF> >0x35 TIF> >0x0D TIF> >0x28 TIF> >0x0D TIF> >0x28 TIF> >0x0D TIF> >0x28 TIF> >0x35 TIF> >0x35 TIF> >0x35 TIF> >0x0D TIF> >0x28 TIF> >0x0D TIF> >0x28 TIF> >0x35 TIF> >0x0D TIF> >0x28 TIF> >0x0D TIF> >0x28 TIF> >0x0D TIF> >0x28 TIF> >0x35 TIF> >0x35 TIF> >0x0D TIF> >0x28 TIF> >0x35 TIF> >0x35 TIF>
Found Cortex-M0 r0p0, Little endian. -- CPU_WriteMem(4 bytes @ 0xE0002000) -- CPU_ReadMem(4 bytes @ 0xE000EDF0) -- CPU_ReadMem(4 bytes @ 0xE0002000)FPUnit: 4 code (BP) slots and 0 literal slots -- CPU_ReadMem(4 bytes @ 0xE000EDFC) -- CPU_ReadMem(4 bytes @ 0xE0001000) -- CPU_WriteMem(4 bytes @ 0xE0001000)CoreSight components:ROMTbl 0 @ F0000000 -- CPU_ReadMem(16 bytes @ 0xF0000000) -- CPU_ReadMem(16 bytes @ 0xE00FFFF0) -- CPU_ReadMem(16 bytes @ 0xE00FFFE0)
ROMTbl 0 [0]: F00FF000, CID: B105100D, PID: 000BB471 ROM TableROMTbl 1 @ E00FF000 -- CPU_ReadMem(16 bytes @ 0xE00FF000) -- CPU_ReadMem(16 bytes @ 0xE000EFF0) -- CPU_ReadMem(16 bytes @ 0xE000EFE0)ROMTbl 1 [0]: FFF0F000, CID: B105E00D, PID: 000BB008 SCS -- CPU_ReadMem(16 bytes @ 0xE0001FF0) -- CPU_ReadMem(16 bytes @ 0xE0001FE0)ROMTbl 1 [1]: FFF02000, CID: B105E00D, PID: 000BB00A DWT -- CPU_ReadMem(16 bytes @ 0xE0002FF0) -- CPU_ReadMem(16 bytes @ 0xE0002FE0)
ROMTbl 1 [2]: FFF03000, CID: B105E00D, PID: 000BB00B FPB -- CPU_ReadMem(16 bytes @ 0xF0002FF0) -- CPU_ReadMem(16 bytes @ 0xF0002FE0)ROMTbl 0 [1]: 00002000, CID: B105900D, PID: 000BB9A3 ??? >0x35 TIF>  returns 0x0BB11477 (0024ms, 0575ms total)
T3CF8 000:601 JLINK_GetDLLVersion()  returns 49802 (0000ms, 0575ms total)
T3CF8 000:601 JLINK_CORE_GetFound()  returns 0x60000FF (0000ms, 0575ms total)
T3CF8 000:601 JLINK_GetDebugInfo(0x100) -- Value=0xF0000003  returns 0x00 (0000ms, 0575ms total)
T3CF8 000:601 JLINK_GetDebugInfo(0x100) -- Value=0xF0000003  returns 0x00 (0000ms, 0575ms total)
T3CF8 000:601 JLINK_GetDebugInfo(0x101)  returns 0xFFFFFFFF (0000ms, 0575ms total)
T3CF8 000:601 JLINK_ReadMemEx(0xE0041FF0, 0x0010 Bytes, ..., AccessWidth = 33554436) -- CPU is running -- CPU_ReadMem(16 bytes @ 0xE0041FF0) - Data: 00 00 00 00 00 00 00 00 00 00 00 00 00 00 00 00  returns 0x10 (0001ms, 0576ms total)
T3CF8 000:602 JLINK_GetDebugInfo(0x102)  returns 0xFFFFFFFF (0000ms, 0576ms total)
T3CF8 000:602 JLINK_GetDebugInfo(0x103)  returns 0xFFFFFFFF (0000ms, 0576ms total)
T3CF8 000:602 JLINK_ReadMemEx(0xE0040FF0, 0x0010 Bytes, ..., AccessWidth = 33554436) -- CPU is running -- CPU_ReadMem(16 bytes @ 0xE0040FF0) - Data: 00 00 00 00 00 00 00 00 00 00 00 00 00 00 00 00  returns 0x10 (0001ms, 0577ms total)
T3CF8 000:603 JLINK_GetDebugInfo(0x104)  returns 0xFFFFFFFF (0000ms, 0577ms total)
T3CF8 000:603 JLINK_GetDebugInfo(0x105)  returns 0xFFFFFFFF (0000ms, 0577ms total)
T3CF8 000:603 JLINK_GetDebugInfo(0x106)  returns 0xFFFFFFFF (0000ms, 0577ms total)
T3CF8 000:603 JLINK_GetDebugInfo(0x107)  returns 0xFFFFFFFF (0000ms, 0577ms total)
T3CF8 000:603 JLINK_GetDebugInfo(0x10C)  returns 0xFFFFFFFF (0000ms, 0577ms total)
T3CF8 000:603 JLINK_ReadMemU32(0xE000ED00, 0x0001 Items, ...) -- CPU is running -- CPU_ReadMem(4 bytes @ 0xE000ED00) - Data: 00 C2 0C 41  returns 0x01 (0001ms, 0578ms total)
T3CF8 000:604 JLINK_GetDebugInfo(0x10F)  returns 0xFFFFFFFF (0000ms, 0578ms total)
T3CF8 000:604 JLINK_SetResetType(JLINKARM_RESET_TYPE_NORMAL)  returns JLINKARM_RESET_TYPE_NORMAL (0000ms, 0578ms total)
T3CF8 000:604 JLINK_Reset() -- CPU is running -- CPU_WriteMem(4 bytes @ 0xE000EDF0) -- CPU is running -- CPU_WriteMem(4 bytes @ 0xE000EDFC) >0x35 TIF> -- CPU is running -- CPU_WriteMem(4 bytes @ 0xE000ED0C) -- CPU is running -- CPU_ReadMem(4 bytes @ 0xE000EDF0) -- CPU is running -- CPU_ReadMem(4 bytes @ 0xE000EDF0) -- CPU is running -- CPU_WriteMem(4 bytes @ 0xE000EDF0) -- CPU is running -- CPU_WriteMem(4 bytes @ 0xE000EDFC) -- CPU is running -- CPU_ReadMem(4 bytes @ 0xE000EDF0)
 -- CPU_WriteMem(4 bytes @ 0xE0002000) -- CPU_ReadMem(4 bytes @ 0xE000EDFC) -- CPU_ReadMem(4 bytes @ 0xE0001000) -- CPU_WriteMem(4 bytes @ 0xE0001000) (0020ms, 0598ms total)
T3CF8 000:624 JLINK_ReadReg(R15 (PC))  returns 0x00000140 (0000ms, 0598ms total)
T3CF8 000:624 JLINK_ReadReg(XPSR)  returns 0xC1000000 (0000ms, 0598ms total)
T3CF8 000:624 JLINK_Halt()  returns 0x00 (0000ms, 0598ms total)
T3CF8 000:624 JLINK_ReadMemU32(0xE000EDF0, 0x0001 Items, ...) -- CPU_ReadMem(4 bytes @ 0xE000EDF0) - Data: 03 00 03 00  returns 0x01 (0001ms, 0599ms total)
T3CF8 000:625 JLINK_WriteU32(0xE000EDF0, 0xA05F0003) -- CPU_WriteMem(4 bytes @ 0xE000EDF0)  returns 0x00 (0000ms, 0599ms total)
T3CF8 000:625 JLINK_WriteU32(0xE000EDFC, 0x01000000) -- CPU_WriteMem(4 bytes @ 0xE000EDFC)  returns 0x00 (0001ms, 0600ms total)
T3CF8 000:626 JLINK_GetHWStatus(...)  returns 0x00 (0000ms, 0600ms total)
T3CF8 000:626 JLINK_GetNumBPUnits(Type = 0xFFFFFF00)  returns 0x04 (0000ms, 0600ms total)
T3CF8 000:626 JLINK_GetNumBPUnits(Type = 0xF0)  returns 0x2000 (0000ms, 0600ms total)
T3CF8 000:626 JLINK_GetNumWPUnits()  returns 0x02 (0000ms, 0600ms total)
T3CF8 000:626 JLINK_GetSpeed()  returns 0xFA0 (0000ms, 0600ms total)
T3CF8 000:626 JLINK_ReadMemU32(0xE000E004, 0x0001 Items, ...) -- CPU_ReadMem(4 bytes @ 0xE000E004) - Data: 00 00 00 00  returns 0x01 (0001ms, 0601ms total)
T3CF8 000:627 JLINK_ReadReg(R15 (PC))  returns 0x00000140 (0000ms, 0601ms total)
T3CF8 000:627 JLINK_ReadReg(XPSR)  returns 0xC1000000 (0000ms, 0601ms total)
T3CF8 000:711 JLINK_SetResetType(JLINKARM_RESET_TYPE_NORMAL)  returns JLINKARM_RESET_TYPE_NORMAL (0000ms, 0601ms total)
T3CF8 000:711 JLINK_Reset() -- CPU_WriteMem(4 bytes @ 0xE000EDF0) -- CPU_WriteMem(4 bytes @ 0xE000EDFC) >0x35 TIF> -- CPU_WriteMem(4 bytes @ 0xE000ED0C) -- CPU_ReadMem(4 bytes @ 0xE000EDF0) -- CPU_ReadMem(4 bytes @ 0xE000EDF0) -- CPU_WriteMem(4 bytes @ 0xE000EDF0) -- CPU_WriteMem(4 bytes @ 0xE000EDFC) -- CPU is running -- CPU_ReadMem(4 bytes @ 0xE000EDF0) -- CPU_WriteMem(4 bytes @ 0xE0002000) -- CPU_ReadMem(4 bytes @ 0xE000EDFC) -- CPU_ReadMem(4 bytes @ 0xE0001000) -- CPU_WriteMem(4 bytes @ 0xE0001000)
 (0020ms, 0621ms total)
T3CF8 000:731 JLINK_ReadReg(R15 (PC))  returns 0x00000140 (0000ms, 0621ms total)
T3CF8 000:731 JLINK_ReadReg(XPSR)  returns 0xC1000000 (0000ms, 0621ms total)
T3CF8 000:921 JLINK_ReadMemEx(0x00000140, 0x003C Bytes, ..., AccessWidth = 33554432)Mis-aligned memory read: Address: 0x00000140, NumBytes: 60, Alignment: 2 (Halfword-aligned)
  ***** Mis-aligned memory read: Address: 0x00000140, NumBytes: 60, Alignment: 2 (Halfword-aligned) -- CPU_ReadMem(64 bytes @ 0x00000140) -- Updating C cache (64 bytes @ 0x00000140) -- Read from C cache (60 bytes @ 0x00000140) - Data: 03 21 09 48 02 68 0A 43 02 60 08 48 02 68 0A 43 ...  returns 0x3C (0001ms, 0622ms total)
T3C80 001:939 JLINK_ReadMemEx(0x00000140, 0x0002 Bytes, ..., AccessWidth = 33554432)Mis-aligned memory read: Address: 0x00000140, NumBytes: 2, Alignment: 2 (Halfword-aligned)
  ***** Mis-aligned memory read: Address: 0x00000140, NumBytes: 2, Alignment: 2 (Halfword-aligned) -- Read from C cache (2 bytes @ 0x00000140) - Data: 03 21  returns 0x02 (0000ms, 0622ms total)
T3C80 001:939 JLINK_SetBPEx(Addr = 0x000006A8, Type = 0xFFFFFFF2)  returns 0x00000001 (0000ms, 0622ms total)
T3C80 001:939 JLINK_Go() -- CPU_WriteMem(4 bytes @ 0xE0002000) -- CPU_ReadMem(4 bytes @ 0xE0001000) -- CPU_WriteMem(4 bytes @ 0xE0001000) -- CPU_WriteMem(4 bytes @ 0xE0002008) -- CPU_WriteMem(4 bytes @ 0xE000200C) -- CPU_WriteMem(4 bytes @ 0xE0002010) -- CPU_WriteMem(4 bytes @ 0xE0002014) -- CPU_WriteMem(4 bytes @ 0xE0001004) (0004ms, 0626ms total)
T3C80 002:045 JLINK_IsHalted()  returns TRUE (0003ms, 0629ms total)
T3C80 002:048 JLINK_Halt()  returns 0x00 (0000ms, 0626ms total)
T3C80 002:048 JLINK_IsHalted()  returns TRUE (0000ms, 0626ms total)
T3C80 002:048 JLINK_IsHalted()  returns TRUE (0000ms, 0626ms total)
T3C80 002:048 JLINK_IsHalted()  returns TRUE (0000ms, 0626ms total)
T3C80 002:048 JLINK_ReadReg(R15 (PC))  returns 0x000006A8 (0000ms, 0626ms total)
T3C80 002:048 JLINK_ReadReg(XPSR)  returns 0x61000000 (0000ms, 0626ms total)
T3C80 002:049 JLINK_ClrBPEx(BPHandle = 0x00000001)  returns 0x00 (0000ms, 0626ms total)
T3C80 002:049 JLINK_ReadMemU32(0xE000ED30, 0x0001 Items, ...) -- CPU_ReadMem(4 bytes @ 0xE000ED30) - Data: 03 00 00 00  returns 0x01 (0000ms, 0626ms total)
T3C80 002:049 JLINK_ReadMemU32(0xE0001028, 0x0001 Items, ...) -- CPU_ReadMem(4 bytes @ 0xE0001028) - Data: 00 00 00 00  returns 0x01 (0001ms, 0627ms total)
T3C80 002:050 JLINK_ReadMemU32(0xE0001038, 0x0001 Items, ...) -- CPU_ReadMem(4 bytes @ 0xE0001038) - Data: 00 00 00 00  returns 0x01 (0001ms, 0628ms total)
T3C80 002:051 JLINK_ReadReg(R0)  returns 0x000006A9 (0000ms, 0628ms total)
T3C80 002:051 JLINK_ReadReg(R1)  returns 0x200019C0 (0000ms, 0628ms total)
T3C80 002:051 JLINK_ReadReg(R2)  returns 0x00000000 (0000ms, 0628ms total)
T3C80 002:051 JLINK_ReadReg(R3)  returns 0x000004DF (0000ms, 0628ms total)
T3C80 002:051 JLINK_ReadReg(R4)  returns 0x00001BA8 (0000ms, 0628ms total)
T3C80 002:051 JLINK_ReadReg(R5)  returns 0x00000001 (0000ms, 0628ms total)
T3C80 002:051 JLINK_ReadReg(R6)  returns 0x00001BA8 (0000ms, 0628ms total)
T3C80 002:051 JLINK_ReadReg(R7)  returns 0xFFFFFFFF (0000ms, 0628ms total)
T3C80 002:051 JLINK_ReadReg(R8)  returns 0xFFFFFFFF (0000ms, 0628ms total)
T3C80 002:051 JLINK_ReadReg(R9)  returns 0xFFFFFFFF (0000ms, 0628ms total)
T3C80 002:051 JLINK_ReadReg(R10)  returns 0xFFFFFFFF (0001ms, 0629ms total)
T3C80 002:052 JLINK_ReadReg(R11)  returns 0xFFFFFFFF (0000ms, 0629ms total)
T3C80 002:052 JLINK_ReadReg(R12)  returns 0xFFFFFFFF (0000ms, 0629ms total)
T3C80 002:052 JLINK_ReadReg(R13 (SP))  returns 0x200019C0 (0000ms, 0629ms total)
T3C80 002:052 JLINK_ReadReg(R14)  returns 0x000001DD (0000ms, 0629ms total)
T3C80 002:052 JLINK_ReadReg(R15 (PC))  returns 0x000006A8 (0000ms, 0629ms total)
T3C80 002:052 JLINK_ReadReg(XPSR)  returns 0x61000000 (0000ms, 0629ms total)
T3C80 002:052 JLINK_ReadReg(MSP)  returns 0x200019C0 (0000ms, 0629ms total)
T3C80 002:052 JLINK_ReadReg(PSP)  returns 0xFFFFFFFC (0000ms, 0629ms total)
T3C80 002:052 JLINK_ReadReg(CFBP)  returns 0x00000000 (0000ms, 0629ms total)
T3CF8 002:053 JLINK_ReadMemEx(0x00000000, 0x0004 Bytes, ..., AccessWidth = 33554432)Mis-aligned memory read: Address: 0x00000000, NumBytes: 4, Alignment: 2 (Halfword-aligned)
  ***** Mis-aligned memory read: Address: 0x00000000, NumBytes: 4, Alignment: 2 (Halfword-aligned) -- CPU_ReadMem(64 bytes @ 0x00000000) -- Updating C cache (64 bytes @ 0x00000000) -- Read from C cache (4 bytes @ 0x00000000) - Data: C0 19 00 20  returns 0x04 (0002ms, 0631ms total)
T3CF8 002:077 JLINK_ReadMemEx(0x000005A8, 0x003C Bytes, ..., AccessWidth = 33554432)Mis-aligned memory read: Address: 0x000005A8, NumBytes: 60, Alignment: 2 (Halfword-aligned)
  ***** Mis-aligned memory read: Address: 0x000005A8, NumBytes: 60, Alignment: 2 (Halfword-aligned) -- CPU_ReadMem(128 bytes @ 0x00000580) -- Updating C cache (128 bytes @ 0x00000580) -- Read from C cache (60 bytes @ 0x000005A8) - Data: 03 F8 7C BD 78 1B 00 00 10 B5 00 24 20 46 FF F7 ...  returns 0x3C (0002ms, 0633ms total)
T3CF8 002:079 JLINK_ReadMemEx(0x000005E4, 0x003C Bytes, ..., AccessWidth = 33554432)Mis-aligned memory read: Address: 0x000005E4, NumBytes: 60, Alignment: 2 (Halfword-aligned)
  ***** Mis-aligned memory read: Address: 0x000005E4, NumBytes: 60, Alignment: 2 (Halfword-aligned) -- CPU_ReadMem(64 bytes @ 0x00000600) -- Updating C cache (64 bytes @ 0x00000600) -- Read from C cache (60 bytes @ 0x000005E4) - Data: 08 68 20 60 49 68 28 46 88 47 F6 E7 08 34 F4 E7 ...  returns 0x3C (0002ms, 0635ms total)
T3CF8 002:081 JLINK_ReadMemEx(0x00000620, 0x003C Bytes, ..., AccessWidth = 33554432)Mis-aligned memory read: Address: 0x00000620, NumBytes: 60, Alignment: 2 (Halfword-aligned)
  ***** Mis-aligned memory read: Address: 0x00000620, NumBytes: 60, Alignment: 2 (Halfword-aligned) -- CPU_ReadMem(64 bytes @ 0x00000640) -- Updating C cache (64 bytes @ 0x00000640) -- Read from C cache (60 bytes @ 0x00000620) - Data: C9 B2 01 29 17 D1 81 8C 09 07 14 D1 01 8D 09 06 ...  returns 0x3C (0001ms, 0636ms total)
T3CF8 002:082 JLINK_ReadMemEx(0x0000065C, 0x003C Bytes, ..., AccessWidth = 33554432)Mis-aligned memory read: Address: 0x0000065C, NumBytes: 60, Alignment: 2 (Halfword-aligned)
  ***** Mis-aligned memory read: Address: 0x0000065C, NumBytes: 60, Alignment: 2 (Halfword-aligned) -- CPU_ReadMem(64 bytes @ 0x00000680) -- Updating C cache (64 bytes @ 0x00000680) -- Read from C cache (60 bytes @ 0x0000065C) - Data: 70 47 00 00 C0 0F 00 F0 02 68 13 46 02 E0 8A 42 ...  returns 0x3C (0002ms, 0638ms total)
T3CF8 002:084 JLINK_ReadMemEx(0x00000698, 0x003C Bytes, ..., AccessWidth = 33554432)Mis-aligned memory read: Address: 0x00000698, NumBytes: 60, Alignment: 2 (Halfword-aligned)
  ***** Mis-aligned memory read: Address: 0x00000698, NumBytes: 60, Alignment: 2 (Halfword-aligned) -- CPU_ReadMem(64 bytes @ 0x000006C0) -- Updating C cache (64 bytes @ 0x000006C0) -- Read from C cache (60 bytes @ 0x00000698) - Data: 00 05 00 50 10 B5 13 20 FF F7 58 FF 10 BD 00 00 ...  returns 0x3C (0001ms, 0639ms total)
T3C80 011:248 JLINK_ReadMemEx(0x000006A8, 0x0002 Bytes, ..., AccessWidth = 33554432)Mis-aligned memory read: Address: 0x000006A8, NumBytes: 2, Alignment: 2 (Halfword-aligned)
  ***** Mis-aligned memory read: Address: 0x000006A8, NumBytes: 2, Alignment: 2 (Halfword-aligned) -- Read from C cache (2 bytes @ 0x000006A8) - Data: 1F B5  returns 0x02 (0001ms, 0640ms total)
T3C80 011:249 JLINK_SetBPEx(Addr = 0x00000682, Type = 0xFFFFFFF2)  returns 0x00000002 (0000ms, 0640ms total)
T3C80 011:249 JLINK_SetBPEx(Addr = 0x00000690, Type = 0xFFFFFFF2)  returns 0x00000003 (0000ms, 0640ms total)
T3C80 011:249 JLINK_Go() -- CPU_WriteMem(4 bytes @ 0xE0002000) -- CPU_WriteMem(4 bytes @ 0xE0002000) -- CPU_ReadMem(4 bytes @ 0xE0001000) -- CPU_WriteMem(4 bytes @ 0xE0001000) -- CPU_WriteMem(4 bytes @ 0xE0002008) -- CPU_WriteMem(4 bytes @ 0xE000200C) (0004ms, 0644ms total)
T3C80 011:354 JLINK_IsHalted()  returns TRUE (0002ms, 0646ms total)
T3C80 011:356 JLINK_Halt()  returns 0x00 (0000ms, 0644ms total)
T3C80 011:356 JLINK_IsHalted()  returns TRUE (0000ms, 0644ms total)
T3C80 011:356 JLINK_IsHalted()  returns TRUE (0000ms, 0644ms total)
T3C80 011:356 JLINK_IsHalted()  returns TRUE (0000ms, 0644ms total)
T3C80 011:356 JLINK_ReadReg(R15 (PC))  returns 0x00000682 (0000ms, 0644ms total)
T3C80 011:356 JLINK_ReadReg(XPSR)  returns 0x01000000 (0000ms, 0644ms total)
T3C80 011:356 JLINK_ClrBPEx(BPHandle = 0x00000002)  returns 0x00 (0000ms, 0644ms total)
T3C80 011:356 JLINK_ClrBPEx(BPHandle = 0x00000003)  returns 0x00 (0000ms, 0644ms total)
T3C80 011:356 JLINK_ReadMemU32(0xE000ED30, 0x0001 Items, ...) -- CPU_ReadMem(4 bytes @ 0xE000ED30) - Data: 03 00 00 00  returns 0x01 (0001ms, 0645ms total)
T3C80 011:357 JLINK_ReadMemU32(0xE0001028, 0x0001 Items, ...) -- CPU_ReadMem(4 bytes @ 0xE0001028) - Data: 00 00 00 00  returns 0x01 (0000ms, 0645ms total)
T3C80 011:357 JLINK_ReadMemU32(0xE0001038, 0x0001 Items, ...) -- CPU_ReadMem(4 bytes @ 0xE0001038) - Data: 00 00 00 00  returns 0x01 (0001ms, 0646ms total)
T3C80 011:358 JLINK_ReadReg(R0)  returns 0x00000000 (0000ms, 0646ms total)
T3C80 011:358 JLINK_ReadReg(R1)  returns 0xA5A5A5A5 (0000ms, 0646ms total)
T3C80 011:358 JLINK_ReadReg(R2)  returns 0xA5A5A5A5 (0000ms, 0646ms total)
T3C80 011:358 JLINK_ReadReg(R3)  returns 0xA5A5A5A5 (0000ms, 0646ms total)
T3C80 011:358 JLINK_ReadReg(R4)  returns 0x00100000 (0000ms, 0646ms total)
T3C80 011:358 JLINK_ReadReg(R5)  returns 0x50000500 (0000ms, 0646ms total)
T3C80 011:358 JLINK_ReadReg(R6)  returns 0xA5A5A5A5 (0000ms, 0646ms total)
T3C80 011:358 JLINK_ReadReg(R7)  returns 0xA5A5A5A5 (0000ms, 0646ms total)
T3C80 011:358 JLINK_ReadReg(R8)  returns 0xA5A5A5A5 (0000ms, 0646ms total)
T3C80 011:358 JLINK_ReadReg(R9)  returns 0xA5A5A5A5 (0000ms, 0646ms total)
T3C80 011:358 JLINK_ReadReg(R10)  returns 0xA5A5A5A5 (0000ms, 0646ms total)
T3C80 011:358 JLINK_ReadReg(R11)  returns 0xA5A5A5A5 (0000ms, 0646ms total)
T3C80 011:358 JLINK_ReadReg(R12)  returns 0xA5A5A5A5 (0000ms, 0646ms total)
T3C80 011:358 JLINK_ReadReg(R13 (SP))  returns 0x20000478 (0000ms, 0646ms total)
T3C80 011:358 JLINK_ReadReg(R14)  returns 0x00000CFD (0000ms, 0646ms total)
T3C80 011:358 JLINK_ReadReg(R15 (PC))  returns 0x00000682 (0000ms, 0646ms total)
T3C80 011:358 JLINK_ReadReg(XPSR)  returns 0x01000000 (0000ms, 0646ms total)
T3C80 011:358 JLINK_ReadReg(MSP)  returns 0x200019C0 (0000ms, 0646ms total)
T3C80 011:358 JLINK_ReadReg(PSP)  returns 0x20000478 (0000ms, 0646ms total)
T3C80 011:358 JLINK_ReadReg(CFBP)  returns 0x02000000 (0000ms, 0646ms total)
T3CF8 011:360 JLINK_ReadMemEx(0x00000000, 0x0004 Bytes, ..., AccessWidth = 33554432)Mis-aligned memory read: Address: 0x00000000, NumBytes: 4, Alignment: 2 (Halfword-aligned)
  ***** Mis-aligned memory read: Address: 0x00000000, NumBytes: 4, Alignment: 2 (Halfword-aligned) -- CPU_ReadMem(64 bytes @ 0x00000000) -- Updating C cache (64 bytes @ 0x00000000) -- Read from C cache (4 bytes @ 0x00000000) - Data: C0 19 00 20  returns 0x04 (0002ms, 0648ms total)
T3CF8 011:373 JLINK_ReadMemEx(0x00000680, 0x003C Bytes, ..., AccessWidth = 33554432)Mis-aligned memory read: Address: 0x00000680, NumBytes: 60, Alignment: 2 (Halfword-aligned)
  ***** Mis-aligned memory read: Address: 0x00000680, NumBytes: 60, Alignment: 2 (Halfword-aligned) -- CPU_ReadMem(64 bytes @ 0x00000680) -- Updating C cache (64 bytes @ 0x00000680) -- Read from C cache (60 bytes @ 0x00000680) - Data: 05 4D FF 26 F5 36 AC 60 30 46 00 F0 BB FD EC 60 ...  returns 0x3C (0001ms, 0649ms total)
T3C80 015:383 JLINK_ReadMemEx(0x00000682, 0x0002 Bytes, ..., AccessWidth = 33554432)Mis-aligned memory read: Address: 0x00000682, NumBytes: 2, Alignment: 2 (Halfword-aligned)
  ***** Mis-aligned memory read: Address: 0x00000682, NumBytes: 2, Alignment: 2 (Halfword-aligned) -- Read from C cache (2 bytes @ 0x00000682) - Data: FF 26  returns 0x02 (0002ms, 0651ms total)
T3C80 015:385 JLINK_Step() -- Read from C cache (2 bytes @ 0x00000682) -- CPU_ReadMem(4 bytes @ 0xE0001004) -- Simulated  returns 0x00 (0002ms, 0653ms total)
T3C80 015:387 JLINK_ReadReg(R15 (PC))  returns 0x00000684 (0000ms, 0653ms total)
T3C80 015:387 JLINK_ReadReg(XPSR)  returns 0x01000000 (0000ms, 0653ms total)
T3C80 015:387 JLINK_SetBPEx(Addr = 0x00000682, Type = 0xFFFFFFF2)  returns 0x00000004 (0000ms, 0653ms total)
T3C80 015:387 JLINK_SetBPEx(Addr = 0x00000690, Type = 0xFFFFFFF2)  returns 0x00000005 (0000ms, 0653ms total)
T3C80 015:387 JLINK_Go() -- CPU_WriteMem(4 bytes @ 0xE0002000) -- CPU_WriteMem(4 bytes @ 0xE0002000) -- CPU_ReadMem(4 bytes @ 0xE0001000) -- CPU_WriteMem(4 bytes @ 0xE0001000) -- CPU_WriteMem(4 bytes @ 0xE0001004) (0004ms, 0657ms total)
T3C80 015:491 JLINK_IsHalted()  returns FALSE (0001ms, 0658ms total)
T3C80 015:593 JLINK_IsHalted()  returns FALSE (0000ms, 0657ms total)
T3C80 015:694 JLINK_IsHalted()  returns FALSE (0187ms, 0844ms total)
T3C80 015:982 JLINK_IsHalted()  returns TRUE (0003ms, 0660ms total)
T3C80 015:985 JLINK_Halt()  returns 0x00 (0000ms, 0657ms total)
T3C80 015:985 JLINK_IsHalted()  returns TRUE (0000ms, 0657ms total)
T3C80 015:985 JLINK_IsHalted()  returns TRUE (0000ms, 0657ms total)
T3C80 015:985 JLINK_IsHalted()  returns TRUE (0000ms, 0657ms total)
T3C80 015:985 JLINK_ReadReg(R15 (PC))  returns 0x00000690 (0000ms, 0657ms total)
T3C80 015:985 JLINK_ReadReg(XPSR)  returns 0x01000000 (0000ms, 0657ms total)
T3C80 015:985 JLINK_ClrBPEx(BPHandle = 0x00000004)  returns 0x00 (0001ms, 0658ms total)
T3C80 015:986 JLINK_ClrBPEx(BPHandle = 0x00000005)  returns 0x00 (0000ms, 0658ms total)
T3C80 015:986 JLINK_ReadMemU32(0xE000ED30, 0x0001 Items, ...) -- CPU_ReadMem(4 bytes @ 0xE000ED30) - Data: 03 00 00 00  returns 0x01 (0001ms, 0659ms total)
T3C80 015:987 JLINK_ReadMemU32(0xE0001028, 0x0001 Items, ...) -- CPU_ReadMem(4 bytes @ 0xE0001028) - Data: 00 00 00 00  returns 0x01 (0001ms, 0660ms total)
T3C80 015:988 JLINK_ReadMemU32(0xE0001038, 0x0001 Items, ...) -- CPU_ReadMem(4 bytes @ 0xE0001038) - Data: 00 00 00 00  returns 0x01 (0000ms, 0660ms total)
T3C80 015:989 JLINK_ReadReg(R0)  returns 0x10000000 (0000ms, 0660ms total)
T3C80 015:989 JLINK_ReadReg(R1)  returns 0xE000ED00 (0000ms, 0660ms total)
T3C80 015:989 JLINK_ReadReg(R2)  returns 0x200010C0 (0000ms, 0660ms total)
T3C80 015:989 JLINK_ReadReg(R3)  returns 0x200010C0 (0000ms, 0660ms total)
T3C80 015:989 JLINK_ReadReg(R4)  returns 0x00100000 (0000ms, 0660ms total)
T3C80 015:989 JLINK_ReadReg(R5)  returns 0x50000500 (0000ms, 0660ms total)
T3C80 015:989 JLINK_ReadReg(R6)  returns 0x000001F4 (0000ms, 0660ms total)
T3C80 015:989 JLINK_ReadReg(R7)  returns 0xA5A5A5A5 (0000ms, 0660ms total)
T3C80 015:989 JLINK_ReadReg(R8)  returns 0xA5A5A5A5 (0000ms, 0660ms total)
T3C80 015:989 JLINK_ReadReg(R9)  returns 0xA5A5A5A5 (0000ms, 0660ms total)
T3C80 015:989 JLINK_ReadReg(R10)  returns 0xA5A5A5A5 (0000ms, 0660ms total)
T3C80 015:989 JLINK_ReadReg(R11)  returns 0xA5A5A5A5 (0000ms, 0660ms total)
T3C80 015:989 JLINK_ReadReg(R12)  returns 0xA5A5A5A5 (0000ms, 0660ms total)
T3C80 015:989 JLINK_ReadReg(R13 (SP))  returns 0x20000478 (0000ms, 0660ms total)
T3C80 015:989 JLINK_ReadReg(R14)  returns 0x0000122F (0000ms, 0660ms total)
T3C80 015:989 JLINK_ReadReg(R15 (PC))  returns 0x00000690 (0000ms, 0660ms total)
T3C80 015:989 JLINK_ReadReg(XPSR)  returns 0x01000000 (0000ms, 0660ms total)
T3C80 015:989 JLINK_ReadReg(MSP)  returns 0x200019C0 (0000ms, 0660ms total)
T3C80 015:989 JLINK_ReadReg(PSP)  returns 0x20000478 (0000ms, 0660ms total)
T3C80 015:990 JLINK_ReadReg(CFBP)  returns 0x02000000 (0000ms, 0661ms total)
T3CF8 016:002 JLINK_ReadMemEx(0x00000000, 0x0004 Bytes, ..., AccessWidth = 33554432)Mis-aligned memory read: Address: 0x00000000, NumBytes: 4, Alignment: 2 (Halfword-aligned)
  ***** Mis-aligned memory read: Address: 0x00000000, NumBytes: 4, Alignment: 2 (Halfword-aligned) -- CPU_ReadMem(64 bytes @ 0x00000000) -- Updating C cache (64 bytes @ 0x00000000) -- Read from C cache (4 bytes @ 0x00000000) - Data: C0 19 00 20  returns 0x04 (0001ms, 0662ms total)
T3CF8 016:019 JLINK_ReadMemEx(0x00000682, 0x0002 Bytes, ..., AccessWidth = 33554432)Mis-aligned memory read: Address: 0x00000682, NumBytes: 2, Alignment: 2 (Halfword-aligned)
  ***** Mis-aligned memory read: Address: 0x00000682, NumBytes: 2, Alignment: 2 (Halfword-aligned) -- CPU_ReadMem(64 bytes @ 0x00000680) -- Updating C cache (64 bytes @ 0x00000680) -- Read from C cache (2 bytes @ 0x00000682) - Data: FF 26  returns 0x02 (0002ms, 0664ms total)
T3CF8 016:021 JLINK_ReadMemEx(0x00000684, 0x003C Bytes, ..., AccessWidth = 33554432)Mis-aligned memory read: Address: 0x00000684, NumBytes: 60, Alignment: 2 (Halfword-aligned)
  ***** Mis-aligned memory read: Address: 0x00000684, NumBytes: 60, Alignment: 2 (Halfword-aligned) -- Read from C cache (60 bytes @ 0x00000684) - Data: F5 36 AC 60 30 46 00 F0 BB FD EC 60 30 46 00 F0 ...  returns 0x3C (0000ms, 0664ms total)
T3C80 017:047 JLINK_ReadMemEx(0x00000690, 0x0002 Bytes, ..., AccessWidth = 33554432)Mis-aligned memory read: Address: 0x00000690, NumBytes: 2, Alignment: 2 (Halfword-aligned)
  ***** Mis-aligned memory read: Address: 0x00000690, NumBytes: 2, Alignment: 2 (Halfword-aligned) -- Read from C cache (2 bytes @ 0x00000690) - Data: 30 46  returns 0x02 (0003ms, 0667ms total)
T3C80 017:050 JLINK_Step() -- Read from C cache (2 bytes @ 0x00000690) -- CPU_ReadMem(4 bytes @ 0xE0001004) -- Simulated  returns 0x00 (0001ms, 0668ms total)
T3C80 017:051 JLINK_ReadReg(R15 (PC))  returns 0x00000692 (0000ms, 0668ms total)
T3C80 017:051 JLINK_ReadReg(XPSR)  returns 0x01000000 (0000ms, 0668ms total)
T3C80 017:051 JLINK_SetBPEx(Addr = 0x00000682, Type = 0xFFFFFFF2)  returns 0x00000006 (0000ms, 0668ms total)
T3C80 017:051 JLINK_SetBPEx(Addr = 0x00000690, Type = 0xFFFFFFF2)  returns 0x00000007 (0000ms, 0668ms total)
T3C80 017:051 JLINK_Go() -- CPU_WriteMem(4 bytes @ 0xE0002000) -- CPU_WriteMem(4 bytes @ 0xE0002000) -- CPU_ReadMem(4 bytes @ 0xE0001000) -- CPU_WriteMem(4 bytes @ 0xE0001000) -- CPU_WriteMem(4 bytes @ 0xE0001004) (0004ms, 0672ms total)
T3C80 017:156 JLINK_IsHalted()  returns FALSE (0000ms, 0672ms total)
T3C80 017:257 JLINK_IsHalted()  returns FALSE (0001ms, 0673ms total)
T3C80 017:358 JLINK_IsHalted()  returns FALSE (0000ms, 0672ms total)
T3C80 017:459 JLINK_IsHalted()  returns FALSE (0000ms, 0672ms total)
T3C80 017:560 JLINK_IsHalted()  returns FALSE (0000ms, 0672ms total)
T3C80 017:661 JLINK_IsHalted()  returns FALSE (0000ms, 0672ms total)
T3C80 017:762 JLINK_IsHalted()  returns FALSE (0000ms, 0672ms total)
T3C80 017:863 JLINK_IsHalted()  returns FALSE (0000ms, 0672ms total)
T3C80 017:964 JLINK_IsHalted()  returns FALSE (0000ms, 0672ms total)
T3C80 018:066 JLINK_IsHalted()  returns TRUE (0004ms, 0676ms total)
T3C80 018:070 JLINK_Halt()  returns 0x00 (0000ms, 0672ms total)
T3C80 018:070 JLINK_IsHalted()  returns TRUE (0000ms, 0672ms total)
T3C80 018:070 JLINK_IsHalted()  returns TRUE (0000ms, 0672ms total)
T3C80 018:070 JLINK_IsHalted()  returns TRUE (0000ms, 0672ms total)
T3C80 018:070 JLINK_ReadReg(R15 (PC))  returns 0x00000690 (0000ms, 0672ms total)
T3C80 018:070 JLINK_ReadReg(XPSR)  returns 0x01000000 (0000ms, 0672ms total)
T3C80 018:070 JLINK_ClrBPEx(BPHandle = 0x00000006)  returns 0x00 (0000ms, 0672ms total)
T3C80 018:070 JLINK_ClrBPEx(BPHandle = 0x00000007)  returns 0x00 (0000ms, 0672ms total)
T3C80 018:070 JLINK_ReadMemU32(0xE000ED30, 0x0001 Items, ...) -- CPU_ReadMem(4 bytes @ 0xE000ED30) - Data: 03 00 00 00  returns 0x01 (0001ms, 0673ms total)
T3C80 018:071 JLINK_ReadMemU32(0xE0001028, 0x0001 Items, ...) -- CPU_ReadMem(4 bytes @ 0xE0001028) - Data: 00 00 00 00  returns 0x01 (0001ms, 0674ms total)
T3C80 018:072 JLINK_ReadMemU32(0xE0001038, 0x0001 Items, ...) -- CPU_ReadMem(4 bytes @ 0xE0001038) - Data: 00 00 00 00  returns 0x01 (0001ms, 0675ms total)
T3C80 018:073 JLINK_ReadReg(R0)  returns 0x10000000 (0000ms, 0675ms total)
T3C80 018:073 JLINK_ReadReg(R1)  returns 0xE000ED00 (0000ms, 0675ms total)
T3C80 018:073 JLINK_ReadReg(R2)  returns 0x200010C0 (0000ms, 0675ms total)
T3C80 018:073 JLINK_ReadReg(R3)  returns 0x200009BC (0000ms, 0675ms total)
T3C80 018:073 JLINK_ReadReg(R4)  returns 0x00100000 (0000ms, 0675ms total)
T3C80 018:073 JLINK_ReadReg(R5)  returns 0x50000500 (0000ms, 0675ms total)
T3C80 018:073 JLINK_ReadReg(R6)  returns 0x000001F4 (0000ms, 0675ms total)
T3C80 018:073 JLINK_ReadReg(R7)  returns 0xA5A5A5A5 (0000ms, 0675ms total)
T3C80 018:073 JLINK_ReadReg(R8)  returns 0xA5A5A5A5 (0000ms, 0675ms total)
T3C80 018:073 JLINK_ReadReg(R9)  returns 0xA5A5A5A5 (0000ms, 0675ms total)
T3C80 018:073 JLINK_ReadReg(R10)  returns 0xA5A5A5A5 (0000ms, 0675ms total)
T3C80 018:073 JLINK_ReadReg(R11)  returns 0xA5A5A5A5 (0000ms, 0675ms total)
T3C80 018:073 JLINK_ReadReg(R12)  returns 0xA5A5A5A5 (0000ms, 0675ms total)
T3C80 018:073 JLINK_ReadReg(R13 (SP))  returns 0x20000478 (0000ms, 0675ms total)
T3C80 018:073 JLINK_ReadReg(R14)  returns 0x0000122F (0000ms, 0675ms total)
T3C80 018:073 JLINK_ReadReg(R15 (PC))  returns 0x00000690 (0000ms, 0675ms total)
T3C80 018:073 JLINK_ReadReg(XPSR)  returns 0x01000000 (0000ms, 0675ms total)
T3C80 018:073 JLINK_ReadReg(MSP)  returns 0x200019C0 (0000ms, 0675ms total)
T3C80 018:073 JLINK_ReadReg(PSP)  returns 0x20000478 (0000ms, 0675ms total)
T3C80 018:073 JLINK_ReadReg(CFBP)  returns 0x02000000 (0000ms, 0675ms total)
T3CF8 018:074 JLINK_ReadMemEx(0x00000000, 0x0004 Bytes, ..., AccessWidth = 33554432)Mis-aligned memory read: Address: 0x00000000, NumBytes: 4, Alignment: 2 (Halfword-aligned)
  ***** Mis-aligned memory read: Address: 0x00000000, NumBytes: 4, Alignment: 2 (Halfword-aligned) -- CPU_ReadMem(64 bytes @ 0x00000000) -- Updating C cache (64 bytes @ 0x00000000) -- Read from C cache (4 bytes @ 0x00000000) - Data: C0 19 00 20  returns 0x04 (0001ms, 0676ms total)
T3CF8 018:082 JLINK_ReadMemEx(0x00000682, 0x0002 Bytes, ..., AccessWidth = 33554432)Mis-aligned memory read: Address: 0x00000682, NumBytes: 2, Alignment: 2 (Halfword-aligned)
  ***** Mis-aligned memory read: Address: 0x00000682, NumBytes: 2, Alignment: 2 (Halfword-aligned) -- CPU_ReadMem(64 bytes @ 0x00000680) -- Updating C cache (64 bytes @ 0x00000680) -- Read from C cache (2 bytes @ 0x00000682) - Data: FF 26  returns 0x02 (0001ms, 0677ms total)
T3CF8 018:083 JLINK_ReadMemEx(0x00000684, 0x003C Bytes, ..., AccessWidth = 33554432)Mis-aligned memory read: Address: 0x00000684, NumBytes: 60, Alignment: 2 (Halfword-aligned)
  ***** Mis-aligned memory read: Address: 0x00000684, NumBytes: 60, Alignment: 2 (Halfword-aligned) -- Read from C cache (60 bytes @ 0x00000684) - Data: F5 36 AC 60 30 46 00 F0 BB FD EC 60 30 46 00 F0 ...  returns 0x3C (0000ms, 0677ms total)
T3C80 019:657 JLINK_ReadMemEx(0x00000690, 0x0002 Bytes, ..., AccessWidth = 33554432)Mis-aligned memory read: Address: 0x00000690, NumBytes: 2, Alignment: 2 (Halfword-aligned)
  ***** Mis-aligned memory read: Address: 0x00000690, NumBytes: 2, Alignment: 2 (Halfword-aligned) -- Read from C cache (2 bytes @ 0x00000690) - Data: 30 46  returns 0x02 (0003ms, 0680ms total)
T3C80 019:660 JLINK_Step() -- Read from C cache (2 bytes @ 0x00000690) -- CPU_ReadMem(4 bytes @ 0xE0001004) -- Simulated  returns 0x00 (0000ms, 0680ms total)
T3C80 019:660 JLINK_ReadReg(R15 (PC))  returns 0x00000692 (0000ms, 0680ms total)
T3C80 019:660 JLINK_ReadReg(XPSR)  returns 0x01000000 (0000ms, 0680ms total)
T3C80 019:661 JLINK_SetBPEx(Addr = 0x00000682, Type = 0xFFFFFFF2)  returns 0x00000008 (0000ms, 0680ms total)
T3C80 019:661 JLINK_SetBPEx(Addr = 0x00000690, Type = 0xFFFFFFF2)  returns 0x00000009 (0000ms, 0680ms total)
T3C80 019:661 JLINK_Go() -- CPU_WriteMem(4 bytes @ 0xE0002000) -- CPU_WriteMem(4 bytes @ 0xE0002000) -- CPU_ReadMem(4 bytes @ 0xE0001000) -- CPU_WriteMem(4 bytes @ 0xE0001000) -- CPU_WriteMem(4 bytes @ 0xE0001004) (0003ms, 0683ms total)
T3C80 019:765 JLINK_IsHalted()  returns FALSE (0000ms, 0683ms total)
T3C80 019:865 JLINK_IsHalted()  returns FALSE (0000ms, 0683ms total)
T3C80 019:967 JLINK_IsHalted()  returns FALSE (0000ms, 0683ms total)
T3C80 020:069 JLINK_IsHalted()  returns FALSE (0000ms, 0683ms total)
T3C80 020:170 JLINK_IsHalted()  returns FALSE (0000ms, 0683ms total)
T3C80 020:270 JLINK_IsHalted()  returns FALSE (0000ms, 0683ms total)
T3C80 020:372 JLINK_IsHalted()  returns FALSE (0000ms, 0683ms total)
T3C80 020:473 JLINK_IsHalted()  returns FALSE (0000ms, 0683ms total)
T3C80 020:574 JLINK_IsHalted()  returns FALSE (0000ms, 0683ms total)
T3C80 020:675 JLINK_IsHalted()  returns TRUE (0003ms, 0686ms total)
T3C80 020:678 JLINK_Halt()  returns 0x00 (0000ms, 0683ms total)
T3C80 020:678 JLINK_IsHalted()  returns TRUE (0000ms, 0683ms total)
T3C80 020:678 JLINK_IsHalted()  returns TRUE (0000ms, 0683ms total)
T3C80 020:678 JLINK_IsHalted()  returns TRUE (0001ms, 0684ms total)
T3C80 020:679 JLINK_ReadReg(R15 (PC))  returns 0x00000690 (0000ms, 0683ms total)
T3C80 020:679 JLINK_ReadReg(XPSR)  returns 0x01000000 (0000ms, 0683ms total)
T3C80 020:679 JLINK_ClrBPEx(BPHandle = 0x00000008)  returns 0x00 (0000ms, 0683ms total)
T3C80 020:679 JLINK_ClrBPEx(BPHandle = 0x00000009)  returns 0x00 (0000ms, 0683ms total)
T3C80 020:679 JLINK_ReadMemU32(0xE000ED30, 0x0001 Items, ...) -- CPU_ReadMem(4 bytes @ 0xE000ED30) - Data: 03 00 00 00  returns 0x01 (0000ms, 0683ms total)
T3C80 020:679 JLINK_ReadMemU32(0xE0001028, 0x0001 Items, ...) -- CPU_ReadMem(4 bytes @ 0xE0001028) - Data: 00 00 00 00  returns 0x01 (0001ms, 0684ms total)
T3C80 020:680 JLINK_ReadMemU32(0xE0001038, 0x0001 Items, ...) -- CPU_ReadMem(4 bytes @ 0xE0001038) - Data: 00 00 00 00  returns 0x01 (0000ms, 0684ms total)
T3C80 020:681 JLINK_ReadReg(R0)  returns 0x10000000 (0000ms, 0685ms total)
T3C80 020:681 JLINK_ReadReg(R1)  returns 0xE000ED00 (0000ms, 0685ms total)
T3C80 020:681 JLINK_ReadReg(R2)  returns 0x200010C0 (0000ms, 0685ms total)
T3C80 020:681 JLINK_ReadReg(R3)  returns 0x200009BC (0000ms, 0685ms total)
T3C80 020:681 JLINK_ReadReg(R4)  returns 0x00100000 (0000ms, 0685ms total)
T3C80 020:681 JLINK_ReadReg(R5)  returns 0x50000500 (0000ms, 0685ms total)
T3C80 020:681 JLINK_ReadReg(R6)  returns 0x000001F4 (0000ms, 0685ms total)
T3C80 020:681 JLINK_ReadReg(R7)  returns 0xA5A5A5A5 (0000ms, 0685ms total)
T3C80 020:681 JLINK_ReadReg(R8)  returns 0xA5A5A5A5 (0000ms, 0685ms total)
T3C80 020:681 JLINK_ReadReg(R9)  returns 0xA5A5A5A5 (0000ms, 0685ms total)
T3C80 020:681 JLINK_ReadReg(R10)  returns 0xA5A5A5A5 (0000ms, 0685ms total)
T3C80 020:681 JLINK_ReadReg(R11)  returns 0xA5A5A5A5 (0000ms, 0685ms total)
T3C80 020:681 JLINK_ReadReg(R12)  returns 0xA5A5A5A5 (0000ms, 0685ms total)
T3C80 020:681 JLINK_ReadReg(R13 (SP))  returns 0x20000478 (0000ms, 0685ms total)
T3C80 020:681 JLINK_ReadReg(R14)  returns 0x0000122F (0000ms, 0685ms total)
T3C80 020:681 JLINK_ReadReg(R15 (PC))  returns 0x00000690 (0000ms, 0685ms total)
T3C80 020:681 JLINK_ReadReg(XPSR)  returns 0x01000000 (0000ms, 0685ms total)
T3C80 020:681 JLINK_ReadReg(MSP)  returns 0x200019C0 (0000ms, 0685ms total)
T3C80 020:681 JLINK_ReadReg(PSP)  returns 0x20000478 (0000ms, 0685ms total)
T3C80 020:681 JLINK_ReadReg(CFBP)  returns 0x02000000 (0000ms, 0685ms total)
T3CF8 020:682 JLINK_ReadMemEx(0x00000000, 0x0004 Bytes, ..., AccessWidth = 33554432)Mis-aligned memory read: Address: 0x00000000, NumBytes: 4, Alignment: 2 (Halfword-aligned)
  ***** Mis-aligned memory read: Address: 0x00000000, NumBytes: 4, Alignment: 2 (Halfword-aligned) -- CPU_ReadMem(64 bytes @ 0x00000000) -- Updating C cache (64 bytes @ 0x00000000) -- Read from C cache (4 bytes @ 0x00000000) - Data: C0 19 00 20  returns 0x04 (0001ms, 0686ms total)
T3CF8 020:686 JLINK_ReadMemEx(0x00000682, 0x0002 Bytes, ..., AccessWidth = 33554432)Mis-aligned memory read: Address: 0x00000682, NumBytes: 2, Alignment: 2 (Halfword-aligned)
  ***** Mis-aligned memory read: Address: 0x00000682, NumBytes: 2, Alignment: 2 (Halfword-aligned) -- CPU_ReadMem(64 bytes @ 0x00000680) -- Updating C cache (64 bytes @ 0x00000680) -- Read from C cache (2 bytes @ 0x00000682) - Data: FF 26  returns 0x02 (0001ms, 0687ms total)
T3CF8 020:687 JLINK_ReadMemEx(0x00000684, 0x003C Bytes, ..., AccessWidth = 33554432)Mis-aligned memory read: Address: 0x00000684, NumBytes: 60, Alignment: 2 (Halfword-aligned)
  ***** Mis-aligned memory read: Address: 0x00000684, NumBytes: 60, Alignment: 2 (Halfword-aligned) -- Read from C cache (60 bytes @ 0x00000684) - Data: F5 36 AC 60 30 46 00 F0 BB FD EC 60 30 46 00 F0 ...  returns 0x3C (0000ms, 0687ms total)
T3C80 021:864 JLINK_ReadMemEx(0x00000690, 0x0002 Bytes, ..., AccessWidth = 33554432)Mis-aligned memory read: Address: 0x00000690, NumBytes: 2, Alignment: 2 (Halfword-aligned)
  ***** Mis-aligned memory read: Address: 0x00000690, NumBytes: 2, Alignment: 2 (Halfword-aligned) -- Read from C cache (2 bytes @ 0x00000690) - Data: 30 46  returns 0x02 (0003ms, 0690ms total)
T3C80 021:867 JLINK_Step() -- Read from C cache (2 bytes @ 0x00000690) -- CPU_ReadMem(4 bytes @ 0xE0001004) -- Simulated  returns 0x00 (0001ms, 0691ms total)
T3C80 021:868 JLINK_ReadReg(R15 (PC))  returns 0x00000692 (0000ms, 0691ms total)
T3C80 021:868 JLINK_ReadReg(XPSR)  returns 0x01000000 (0000ms, 0691ms total)
T3C80 021:868 JLINK_SetBPEx(Addr = 0x00000682, Type = 0xFFFFFFF2)  returns 0x0000000A (0000ms, 0691ms total)
T3C80 021:868 JLINK_SetBPEx(Addr = 0x00000690, Type = 0xFFFFFFF2)  returns 0x0000000B (0000ms, 0691ms total)
T3C80 021:868 JLINK_Go() -- CPU_WriteMem(4 bytes @ 0xE0002000) -- CPU_WriteMem(4 bytes @ 0xE0002000) -- CPU_ReadMem(4 bytes @ 0xE0001000) -- CPU_WriteMem(4 bytes @ 0xE0001000) -- CPU_WriteMem(4 bytes @ 0xE0001004) (0004ms, 0695ms total)
T3C80 021:974 JLINK_IsHalted()  returns FALSE (0001ms, 0696ms total)
T3C80 022:075 JLINK_IsHalted()  returns FALSE (0000ms, 0695ms total)
T3C80 022:177 JLINK_IsHalted()  returns FALSE (0000ms, 0695ms total)
T3C80 022:278 JLINK_IsHalted()  returns FALSE (0000ms, 0695ms total)
T3C80 022:379 JLINK_IsHalted()  returns FALSE (0000ms, 0695ms total)
T3C80 022:480 JLINK_IsHalted()  returns FALSE (0001ms, 0696ms total)
T3C80 022:581 JLINK_IsHalted()  returns FALSE (0000ms, 0695ms total)
T3C80 022:683 JLINK_IsHalted()  returns FALSE (0000ms, 0695ms total)
T3C80 022:784 JLINK_IsHalted()  returns FALSE (0000ms, 0695ms total)
T3C80 022:885 JLINK_IsHalted()  returns TRUE (0004ms, 0699ms total)
T3C80 022:889 JLINK_Halt()  returns 0x00 (0000ms, 0695ms total)
T3C80 022:889 JLINK_IsHalted()  returns TRUE (0000ms, 0695ms total)
T3C80 022:889 JLINK_IsHalted()  returns TRUE (0000ms, 0695ms total)
T3C80 022:889 JLINK_IsHalted()  returns TRUE (0000ms, 0695ms total)
T3C80 022:889 JLINK_ReadReg(R15 (PC))  returns 0x00000690 (0000ms, 0695ms total)
T3C80 022:889 JLINK_ReadReg(XPSR)  returns 0x01000000 (0000ms, 0695ms total)
T3C80 022:889 JLINK_ClrBPEx(BPHandle = 0x0000000A)  returns 0x00 (0000ms, 0695ms total)
T3C80 022:889 JLINK_ClrBPEx(BPHandle = 0x0000000B)  returns 0x00 (0000ms, 0695ms total)
T3C80 022:889 JLINK_ReadMemU32(0xE000ED30, 0x0001 Items, ...) -- CPU_ReadMem(4 bytes @ 0xE000ED30) - Data: 03 00 00 00  returns 0x01 (0000ms, 0695ms total)
T3C80 022:889 JLINK_ReadMemU32(0xE0001028, 0x0001 Items, ...) -- CPU_ReadMem(4 bytes @ 0xE0001028) - Data: 00 00 00 00  returns 0x01 (0001ms, 0696ms total)
T3C80 022:890 JLINK_ReadMemU32(0xE0001038, 0x0001 Items, ...) -- CPU_ReadMem(4 bytes @ 0xE0001038) - Data: 00 00 00 00  returns 0x01 (0000ms, 0696ms total)
T3C80 022:891 JLINK_ReadReg(R0)  returns 0x10000000 (0000ms, 0696ms total)
T3C80 022:891 JLINK_ReadReg(R1)  returns 0xE000ED00 (0000ms, 0696ms total)
T3C80 022:891 JLINK_ReadReg(R2)  returns 0x200010C0 (0000ms, 0696ms total)
T3C80 022:891 JLINK_ReadReg(R3)  returns 0x200009BC (0000ms, 0696ms total)
T3C80 022:891 JLINK_ReadReg(R4)  returns 0x00100000 (0000ms, 0696ms total)
T3C80 022:891 JLINK_ReadReg(R5)  returns 0x50000500 (0000ms, 0696ms total)
T3C80 022:891 JLINK_ReadReg(R6)  returns 0x000001F4 (0000ms, 0696ms total)
T3C80 022:891 JLINK_ReadReg(R7)  returns 0xA5A5A5A5 (0000ms, 0696ms total)
T3C80 022:891 JLINK_ReadReg(R8)  returns 0xA5A5A5A5 (0000ms, 0696ms total)
T3C80 022:891 JLINK_ReadReg(R9)  returns 0xA5A5A5A5 (0000ms, 0696ms total)
T3C80 022:891 JLINK_ReadReg(R10)  returns 0xA5A5A5A5 (0000ms, 0696ms total)
T3C80 022:891 JLINK_ReadReg(R11)  returns 0xA5A5A5A5 (0000ms, 0696ms total)
T3C80 022:891 JLINK_ReadReg(R12)  returns 0xA5A5A5A5 (0000ms, 0696ms total)
T3C80 022:891 JLINK_ReadReg(R13 (SP))  returns 0x20000478 (0000ms, 0696ms total)
T3C80 022:891 JLINK_ReadReg(R14)  returns 0x0000122F (0000ms, 0696ms total)
T3C80 022:891 JLINK_ReadReg(R15 (PC))  returns 0x00000690 (0000ms, 0696ms total)
T3C80 022:891 JLINK_ReadReg(XPSR)  returns 0x01000000 (0000ms, 0696ms total)
T3C80 022:891 JLINK_ReadReg(MSP)  returns 0x200019C0 (0000ms, 0696ms total)
T3C80 022:891 JLINK_ReadReg(PSP)  returns 0x20000478 (0000ms, 0696ms total)
T3C80 022:891 JLINK_ReadReg(CFBP)  returns 0x02000000 (0000ms, 0696ms total)
T3CF8 022:891 JLINK_ReadMemEx(0x00000000, 0x0004 Bytes, ..., AccessWidth = 33554432)Mis-aligned memory read: Address: 0x00000000, NumBytes: 4, Alignment: 2 (Halfword-aligned)
  ***** Mis-aligned memory read: Address: 0x00000000, NumBytes: 4, Alignment: 2 (Halfword-aligned) -- CPU_ReadMem(64 bytes @ 0x00000000) -- Updating C cache (64 bytes @ 0x00000000) -- Read from C cache (4 bytes @ 0x00000000) - Data: C0 19 00 20  returns 0x04 (0002ms, 0698ms total)
T3CF8 022:896 JLINK_ReadMemEx(0x00000682, 0x0002 Bytes, ..., AccessWidth = 33554432)Mis-aligned memory read: Address: 0x00000682, NumBytes: 2, Alignment: 2 (Halfword-aligned)
  ***** Mis-aligned memory read: Address: 0x00000682, NumBytes: 2, Alignment: 2 (Halfword-aligned) -- CPU_ReadMem(64 bytes @ 0x00000680) -- Updating C cache (64 bytes @ 0x00000680) -- Read from C cache (2 bytes @ 0x00000682) - Data: FF 26  returns 0x02 (0001ms, 0699ms total)
T3CF8 022:897 JLINK_ReadMemEx(0x00000684, 0x003C Bytes, ..., AccessWidth = 33554432)Mis-aligned memory read: Address: 0x00000684, NumBytes: 60, Alignment: 2 (Halfword-aligned)
  ***** Mis-aligned memory read: Address: 0x00000684, NumBytes: 60, Alignment: 2 (Halfword-aligned) -- Read from C cache (60 bytes @ 0x00000684) - Data: F5 36 AC 60 30 46 00 F0 BB FD EC 60 30 46 00 F0 ...  returns 0x3C (0000ms, 0699ms total)
T3C80 024:138 JLINK_ReadMemEx(0x00000690, 0x0002 Bytes, ..., AccessWidth = 33554432)Mis-aligned memory read: Address: 0x00000690, NumBytes: 2, Alignment: 2 (Halfword-aligned)
  ***** Mis-aligned memory read: Address: 0x00000690, NumBytes: 2, Alignment: 2 (Halfword-aligned) -- Read from C cache (2 bytes @ 0x00000690) - Data: 30 46  returns 0x02 (0003ms, 0702ms total)
T3C80 024:141 JLINK_Step() -- Read from C cache (2 bytes @ 0x00000690) -- CPU_ReadMem(4 bytes @ 0xE0001004) -- Simulated  returns 0x00 (0001ms, 0703ms total)
T3C80 024:142 JLINK_ReadReg(R15 (PC))  returns 0x00000692 (0000ms, 0703ms total)
T3C80 024:142 JLINK_ReadReg(XPSR)  returns 0x01000000 (0000ms, 0703ms total)
T3C80 024:142 JLINK_SetBPEx(Addr = 0x00000682, Type = 0xFFFFFFF2)  returns 0x0000000C (0000ms, 0703ms total)
T3C80 024:142 JLINK_SetBPEx(Addr = 0x00000690, Type = 0xFFFFFFF2)  returns 0x0000000D (0000ms, 0703ms total)
T3C80 024:142 JLINK_Go() -- CPU_WriteMem(4 bytes @ 0xE0002000) -- CPU_WriteMem(4 bytes @ 0xE0002000) -- CPU_ReadMem(4 bytes @ 0xE0001000) -- CPU_WriteMem(4 bytes @ 0xE0001000) -- CPU_WriteMem(4 bytes @ 0xE0001004) (0004ms, 0707ms total)
T3C80 024:247 JLINK_IsHalted()  returns FALSE (0000ms, 0707ms total)
T3C80 024:348 JLINK_IsHalted()  returns FALSE (0000ms, 0707ms total)
T3C80 024:449 JLINK_IsHalted()  returns FALSE (0000ms, 0707ms total)
T3C80 024:550 JLINK_IsHalted()  returns FALSE (0001ms, 0708ms total)
T3C80 024:651 JLINK_IsHalted()  returns FALSE (0000ms, 0707ms total)
T3C80 024:752 JLINK_IsHalted()  returns FALSE (0000ms, 0707ms total)
T3C80 024:854 JLINK_IsHalted()  returns FALSE (0000ms, 0707ms total)
T3C80 024:955 JLINK_IsHalted()  returns FALSE (0000ms, 0707ms total)
T3C80 025:056 JLINK_IsHalted()  returns FALSE (0042ms, 0749ms total)
T3C80 025:199 JLINK_IsHalted()  returns TRUE (0004ms, 0711ms total)
T3C80 025:203 JLINK_Halt()  returns 0x00 (0000ms, 0707ms total)
T3C80 025:203 JLINK_IsHalted()  returns TRUE (0000ms, 0707ms total)
T3C80 025:203 JLINK_IsHalted()  returns TRUE (0000ms, 0707ms total)
T3C80 025:203 JLINK_IsHalted()  returns TRUE (0000ms, 0707ms total)
T3C80 025:203 JLINK_ReadReg(R15 (PC))  returns 0x00000690 (0000ms, 0707ms total)
T3C80 025:203 JLINK_ReadReg(XPSR)  returns 0x01000000 (0000ms, 0707ms total)
T3C80 025:203 JLINK_ClrBPEx(BPHandle = 0x0000000C)  returns 0x00 (0000ms, 0707ms total)
T3C80 025:203 JLINK_ClrBPEx(BPHandle = 0x0000000D)  returns 0x00 (0000ms, 0707ms total)
T3C80 025:203 JLINK_ReadMemU32(0xE000ED30, 0x0001 Items, ...) -- CPU_ReadMem(4 bytes @ 0xE000ED30) - Data: 03 00 00 00  returns 0x01 (0001ms, 0708ms total)
T3C80 025:204 JLINK_ReadMemU32(0xE0001028, 0x0001 Items, ...) -- CPU_ReadMem(4 bytes @ 0xE0001028) - Data: 00 00 00 00  returns 0x01 (0001ms, 0709ms total)
T3C80 025:205 JLINK_ReadMemU32(0xE0001038, 0x0001 Items, ...) -- CPU_ReadMem(4 bytes @ 0xE0001038) - Data: 00 00 00 00  returns 0x01 (0001ms, 0710ms total)
T3C80 025:206 JLINK_ReadReg(R0)  returns 0x10000000 (0000ms, 0710ms total)
T3C80 025:206 JLINK_ReadReg(R1)  returns 0xE000ED00 (0000ms, 0710ms total)
T3C80 025:206 JLINK_ReadReg(R2)  returns 0x200010C0 (0000ms, 0710ms total)
T3C80 025:206 JLINK_ReadReg(R3)  returns 0x200009BC (0000ms, 0710ms total)
T3C80 025:206 JLINK_ReadReg(R4)  returns 0x00100000 (0000ms, 0710ms total)
T3C80 025:206 JLINK_ReadReg(R5)  returns 0x50000500 (0000ms, 0710ms total)
T3C80 025:206 JLINK_ReadReg(R6)  returns 0x000001F4 (0000ms, 0710ms total)
T3C80 025:206 JLINK_ReadReg(R7)  returns 0xA5A5A5A5 (0000ms, 0710ms total)
T3C80 025:206 JLINK_ReadReg(R8)  returns 0xA5A5A5A5 (0000ms, 0710ms total)
T3C80 025:206 JLINK_ReadReg(R9)  returns 0xA5A5A5A5 (0000ms, 0710ms total)
T3C80 025:206 JLINK_ReadReg(R10)  returns 0xA5A5A5A5 (0000ms, 0710ms total)
T3C80 025:206 JLINK_ReadReg(R11)  returns 0xA5A5A5A5 (0000ms, 0710ms total)
T3C80 025:206 JLINK_ReadReg(R12)  returns 0xA5A5A5A5 (0000ms, 0710ms total)
T3C80 025:206 JLINK_ReadReg(R13 (SP))  returns 0x20000478 (0000ms, 0710ms total)
T3C80 025:206 JLINK_ReadReg(R14)  returns 0x0000122F (0000ms, 0710ms total)
T3C80 025:206 JLINK_ReadReg(R15 (PC))  returns 0x00000690 (0000ms, 0710ms total)
T3C80 025:206 JLINK_ReadReg(XPSR)  returns 0x01000000 (0000ms, 0710ms total)
T3C80 025:206 JLINK_ReadReg(MSP)  returns 0x200019C0 (0001ms, 0711ms total)
T3C80 025:207 JLINK_ReadReg(PSP)  returns 0x20000478 (0000ms, 0711ms total)
T3C80 025:207 JLINK_ReadReg(CFBP)  returns 0x02000000 (0000ms, 0711ms total)
T3CF8 025:207 JLINK_ReadMemEx(0x00000000, 0x0004 Bytes, ..., AccessWidth = 33554432)Mis-aligned memory read: Address: 0x00000000, NumBytes: 4, Alignment: 2 (Halfword-aligned)
  ***** Mis-aligned memory read: Address: 0x00000000, NumBytes: 4, Alignment: 2 (Halfword-aligned) -- CPU_ReadMem(64 bytes @ 0x00000000) -- Updating C cache (64 bytes @ 0x00000000) -- Read from C cache (4 bytes @ 0x00000000) - Data: C0 19 00 20  returns 0x04 (0002ms, 0713ms total)
T3CF8 025:218 JLINK_ReadMemEx(0x00000682, 0x0002 Bytes, ..., AccessWidth = 33554432)Mis-aligned memory read: Address: 0x00000682, NumBytes: 2, Alignment: 2 (Halfword-aligned)
  ***** Mis-aligned memory read: Address: 0x00000682, NumBytes: 2, Alignment: 2 (Halfword-aligned) -- CPU_ReadMem(64 bytes @ 0x00000680) -- Updating C cache (64 bytes @ 0x00000680) -- Read from C cache (2 bytes @ 0x00000682) - Data: FF 26  returns 0x02 (0001ms, 0714ms total)
T3CF8 025:219 JLINK_ReadMemEx(0x00000684, 0x003C Bytes, ..., AccessWidth = 33554432)Mis-aligned memory read: Address: 0x00000684, NumBytes: 60, Alignment: 2 (Halfword-aligned)
  ***** Mis-aligned memory read: Address: 0x00000684, NumBytes: 60, Alignment: 2 (Halfword-aligned) -- Read from C cache (60 bytes @ 0x00000684) - Data: F5 36 AC 60 30 46 00 F0 BB FD EC 60 30 46 00 F0 ...  returns 0x3C (0000ms, 0714ms total)
T3C80 026:154 JLINK_ReadMemEx(0x00000690, 0x0002 Bytes, ..., AccessWidth = 33554432)Mis-aligned memory read: Address: 0x00000690, NumBytes: 2, Alignment: 2 (Halfword-aligned)
  ***** Mis-aligned memory read: Address: 0x00000690, NumBytes: 2, Alignment: 2 (Halfword-aligned) -- Read from C cache (2 bytes @ 0x00000690) - Data: 30 46  returns 0x02 (0001ms, 0715ms total)
T3C80 026:155 JLINK_Step() -- Read from C cache (2 bytes @ 0x00000690) -- CPU_ReadMem(4 bytes @ 0xE0001004) -- Simulated  returns 0x00 (0000ms, 0715ms total)
T3C80 026:155 JLINK_ReadReg(R15 (PC))  returns 0x00000692 (0000ms, 0715ms total)
T3C80 026:155 JLINK_ReadReg(XPSR)  returns 0x01000000 (0000ms, 0715ms total)
T3C80 026:155 JLINK_SetBPEx(Addr = 0x00000682, Type = 0xFFFFFFF2)  returns 0x0000000E (0000ms, 0715ms total)
T3C80 026:155 JLINK_SetBPEx(Addr = 0x00000690, Type = 0xFFFFFFF2)  returns 0x0000000F (0000ms, 0715ms total)
T3C80 026:155 JLINK_Go() -- CPU_WriteMem(4 bytes @ 0xE0002000) -- CPU_WriteMem(4 bytes @ 0xE0002000) -- CPU_ReadMem(4 bytes @ 0xE0001000) -- CPU_WriteMem(4 bytes @ 0xE0001000) -- CPU_WriteMem(4 bytes @ 0xE0001004) (0004ms, 0719ms total)
T3C80 026:259 JLINK_IsHalted()  returns FALSE (0001ms, 0720ms total)
T3C80 026:360 JLINK_IsHalted()  returns FALSE (0000ms, 0719ms total)
T3C80 026:462 JLINK_IsHalted()  returns FALSE (0000ms, 0719ms total)
T3C80 026:562 JLINK_IsHalted()  returns FALSE (0000ms, 0719ms total)
T3C80 026:663 JLINK_IsHalted()  returns FALSE (0001ms, 0720ms total)
T3C80 026:765 JLINK_IsHalted()  returns FALSE (0173ms, 0892ms total)
T3C80 027:039 JLINK_IsHalted()  returns FALSE (0000ms, 0719ms total)
T3C80 027:140 JLINK_IsHalted()  returns FALSE (0000ms, 0719ms total)
T3C80 027:242 JLINK_IsHalted()  returns TRUE (0003ms, 0722ms total)
T3C80 027:245 JLINK_Halt()  returns 0x00 (0000ms, 0719ms total)
T3C80 027:245 JLINK_IsHalted()  returns TRUE (0000ms, 0719ms total)
T3C80 027:245 JLINK_IsHalted()  returns TRUE (0000ms, 0719ms total)
T3C80 027:245 JLINK_IsHalted()  returns TRUE (0000ms, 0719ms total)
T3C80 027:245 JLINK_ReadReg(R15 (PC))  returns 0x00000690 (0000ms, 0719ms total)
T3C80 027:245 JLINK_ReadReg(XPSR)  returns 0x01000000 (0000ms, 0719ms total)
